
T2C4C 000:395 SEGGER J-Link V4.98e Log File (0001ms, 0277ms total)
T2C4C 000:395 DLL Compiled: May  5 2015 11:00:52 (0001ms, 0277ms total)
T2C4C 000:395 Logging started @ 2019-04-10 22:23 (0001ms, 0277ms total)
T2C4C 000:396 JLINK_SetWarnOutHandler(...) (0000ms, 0277ms total)
T2C4C 000:396 JLINK_OpenEx(...)
Firmware: J-Link OB-STM32F072-CortexM compiled Mar  8 2016 11:15:54
Hardware: V1.00
Feature(s): GDB, RDI, FlashBP, FlashDL, JFlash, RDDI  returns O.K. (0273ms, 0550ms total)
T2C4C 000:669 JLINK_SetErrorOutHandler(...) (0000ms, 0550ms total)
T2C4C 000:669 JLINK_ExecCommand("ProjectFile = "C:\Users\ChrisLiu\Desktop\MR2Dog\MDK-ARM\JLinkSettings.ini"", ...)Device "STM32F427II" selected.  returns 0x00 (0010ms, 0560ms total)
T2C4C 000:695 JLINK_ExecCommand("Device = STM32F427IIHx", ...)Device "STM32F427II" selected.  returns 0x00 (0016ms, 0576ms total)
T2C4C 000:711 JLINK_ExecCommand("DisableConnectionTimeout", ...)  returns 0x01 (0000ms, 0576ms total)
T2C4C 000:711 JLINK_GetHardwareVersion()  returns 0x2710 (0001ms, 0577ms total)
T2C4C 000:712 JLINK_GetDLLVersion()  returns 49805 (0000ms, 0577ms total)
T2C4C 000:712 JLINK_GetFirmwareString(...) (0000ms, 0577ms total)
T2C4C 000:746 JLINK_GetDLLVersion()  returns 49805 (0000ms, 0577ms total)
T2C4C 000:746 JLINK_GetCompileDateTime() (0000ms, 0577ms total)
T2C4C 000:754 JLINK_GetFirmwareString(...) (0000ms, 0577ms total)
T2C4C 000:763 JLINK_GetHardwareVersion()  returns 0x2710 (0000ms, 0577ms total)
T2C4C 000:784 JLINK_TIF_Select(JLINKARM_TIF_SWD)  returns 0x00 (0002ms, 0579ms total)
T2C4C 000:786 JLINK_SetSpeed(5000) (0000ms, 0579ms total)
T2C4C 000:786 JLINK_GetId() >0x108 TIF>Found SWD-DP with ID 0x2BA01477 >0x0D TIF> >0x28 TIF> >0x0D TIF> >0x28 TIF> >0x0D TIF> >0x21 TIF> >0x0D TIF> >0x28 TIF> >0x0D TIF> >0x28 TIF> >0x0D TIF> >0x28 TIF> >0x0D TIF> >0x21 TIF> >0x0D TIF> >0x21 TIF> >0x0D TIF> >0x28 TIF> >0x0D TIF> >0x21 TIF> >0x0D TIF> >0x21 TIF> >0x0D TIF> >0x28 TIF> >0x0D TIF> >0x21 TIF> >0x0D TIF> >0x21 TIF> >0x108 TIF>Found SWD-DP with ID 0x2BA01477 >0x0D TIF> >0x21 TIF> >0x0D TIF> >0x28 TIF> >0x0D TIF> >0x28 TIF> >0x0D TIF> >0x21 TIF>
 >0x0D TIF> >0x28 TIF> >0x0D TIF> >0x21 TIF> >0x0D TIF> >0x21 TIF> >0x0D TIF> >0x21 TIF> >0x0D TIF> >0x21 TIF> >0x0D TIF> >0x28 TIF> >0x0D TIF> >0x28 TIF> >0x0D TIF> >0x21 TIF> >0x0D TIF> >0x28 TIF> >0x0D TIF> >0x28 TIF> >0x0D TIF> >0x28 TIF> >0x0D TIF> >0x21 TIF> >0x0D TIF> >0x21 TIF> >0x0D TIF> >0x28 TIF> >0x0D TIF> >0x21 TIF> >0x0D TIF> >0x21 TIF>Found Cortex-M4 r0p1, Little endian. -- CPU_WriteMem(4 bytes @ 0xE0002000) -- CPU_ReadMem(4 bytes @ 0xE000EDF0) -- CPU_ReadMem(4 bytes @ 0xE0002000)
FPUnit: 6 code (BP) slots and 2 literal slots -- CPU_ReadMem(4 bytes @ 0xE000EDFC) -- CPU_ReadMem(4 bytes @ 0xE0001000) -- CPU_WriteMem(4 bytes @ 0xE0001000) -- CPU_ReadMem(4 bytes @ 0xE000ED88) -- CPU_WriteMem(4 bytes @ 0xE000ED88) -- CPU_ReadMem(4 bytes @ 0xE000ED88) -- CPU_WriteMem(4 bytes @ 0xE000ED88)CoreSight components:ROMTbl 0 @ E00FF000 -- CPU_ReadMem(16 bytes @ 0xE00FF000) -- CPU_ReadMem(16 bytes @ 0xE000EFF0) -- CPU_ReadMem(16 bytes @ 0xE000EFE0)
ROMTbl 0 [0]: FFF0F000, CID: B105E00D, PID: 000BB00C SCS -- CPU_ReadMem(16 bytes @ 0xE0001FF0) -- CPU_ReadMem(16 bytes @ 0xE0001FE0)ROMTbl 0 [1]: FFF02000, CID: B105E00D, PID: 003BB002 DWT -- CPU_ReadMem(16 bytes @ 0xE0002FF0) -- CPU_ReadMem(16 bytes @ 0xE0002FE0)ROMTbl 0 [2]: FFF03000, CID: B105E00D, PID: 002BB003 FPB -- CPU_ReadMem(16 bytes @ 0xE0000FF0) -- CPU_ReadMem(16 bytes @ 0xE0000FE0)ROMTbl 0 [3]: FFF01000, CID: B105E00D, PID: 003BB001 ITM -- CPU_ReadMem(16 bytes @ 0xE00FF010)
 -- CPU_ReadMem(16 bytes @ 0xE0040FF0) -- CPU_ReadMem(16 bytes @ 0xE0040FE0)ROMTbl 0 [4]: FFF41000, CID: B105900D, PID: 000BB9A1 TPIU -- CPU_ReadMem(16 bytes @ 0xE0041FF0) -- CPU_ReadMem(16 bytes @ 0xE0041FE0)ROMTbl 0 [5]: FFF42000, CID: B105900D, PID: 000BB925 ETM >0x0D TIF> >0x21 TIF>  returns 0x2BA01477 (0146ms, 0725ms total)
T2C4C 000:932 JLINK_GetDLLVersion()  returns 49805 (0000ms, 0725ms total)
T2C4C 000:932 JLINK_CORE_GetFound()  returns 0xE0000FF (0001ms, 0726ms total)
T2C4C 000:933 JLINK_GetDebugInfo(0x100) -- Value=0xE00FF003  returns 0x00 (0000ms, 0726ms total)
T2C4C 000:940 JLINK_ReadMem (0xE00FF000, 0x0020 Bytes, ...) -- CPU is running -- CPU_ReadMem(32 bytes @ 0xE00FF000) - Data: 03 F0 F0 FF 03 20 F0 FF 03 30 F0 FF 03 10 F0 FF ...  returns 0x00 (0006ms, 0732ms total)
T2C4C 000:946 JLINK_ReadMem (0xE000EFF0, 0x0010 Bytes, ...) -- CPU is running -- CPU_ReadMem(16 bytes @ 0xE000EFF0) - Data: 0D 00 00 00 E0 00 00 00 05 00 00 00 B1 00 00 00  returns 0x00 (0001ms, 0733ms total)
T2C4C 000:947 JLINK_ReadMem (0xE000EFD0, 0x0020 Bytes, ...) -- CPU is running -- CPU_ReadMem(32 bytes @ 0xE000EFD0) - Data: 04 00 00 00 00 00 00 00 00 00 00 00 00 00 00 00 ...  returns 0x00 (0001ms, 0734ms total)
T2C4C 000:948 JLINK_ReadMem (0xE0001FF0, 0x0010 Bytes, ...) -- CPU is running -- CPU_ReadMem(16 bytes @ 0xE0001FF0) - Data: 0D 00 00 00 E0 00 00 00 05 00 00 00 B1 00 00 00  returns 0x00 (0001ms, 0735ms total)
T2C4C 000:949 JLINK_ReadMem (0xE0001FD0, 0x0020 Bytes, ...) -- CPU is running -- CPU_ReadMem(32 bytes @ 0xE0001FD0) - Data: 04 00 00 00 00 00 00 00 00 00 00 00 00 00 00 00 ...  returns 0x00 (0001ms, 0736ms total)
T2C4C 000:950 JLINK_ReadMem (0xE0002FF0, 0x0010 Bytes, ...) -- CPU is running -- CPU_ReadMem(16 bytes @ 0xE0002FF0) - Data: 0D 00 00 00 E0 00 00 00 05 00 00 00 B1 00 00 00  returns 0x00 (0001ms, 0737ms total)
T2C4C 000:951 JLINK_ReadMem (0xE0002FD0, 0x0020 Bytes, ...) -- CPU is running -- CPU_ReadMem(32 bytes @ 0xE0002FD0) - Data: 04 00 00 00 00 00 00 00 00 00 00 00 00 00 00 00 ...  returns 0x00 (0001ms, 0738ms total)
T2C4C 000:952 JLINK_ReadMem (0xE0000FF0, 0x0010 Bytes, ...) -- CPU is running -- CPU_ReadMem(16 bytes @ 0xE0000FF0) - Data: 0D 00 00 00 E0 00 00 00 05 00 00 00 B1 00 00 00  returns 0x00 (0001ms, 0739ms total)
T2C4C 000:953 JLINK_ReadMem (0xE0000FD0, 0x0020 Bytes, ...) -- CPU is running -- CPU_ReadMem(32 bytes @ 0xE0000FD0) - Data: 04 00 00 00 00 00 00 00 00 00 00 00 00 00 00 00 ...  returns 0x00 (0001ms, 0740ms total)
T2C4C 000:954 JLINK_ReadMem (0xE0040FF0, 0x0010 Bytes, ...) -- CPU is running -- CPU_ReadMem(16 bytes @ 0xE0040FF0) - Data: 0D 00 00 00 90 00 00 00 05 00 00 00 B1 00 00 00  returns 0x00 (0001ms, 0741ms total)
T2C4C 000:955 JLINK_ReadMem (0xE0040FD0, 0x0020 Bytes, ...) -- CPU is running -- CPU_ReadMem(32 bytes @ 0xE0040FD0) - Data: 04 00 00 00 00 00 00 00 00 00 00 00 00 00 00 00 ...  returns 0x00 (0001ms, 0742ms total)
T2C4C 000:956 JLINK_ReadMem (0xE0041FF0, 0x0010 Bytes, ...) -- CPU is running -- CPU_ReadMem(16 bytes @ 0xE0041FF0) - Data: 0D 00 00 00 90 00 00 00 05 00 00 00 B1 00 00 00  returns 0x00 (0001ms, 0743ms total)
T2C4C 000:957 JLINK_ReadMem (0xE0041FD0, 0x0020 Bytes, ...) -- CPU is running -- CPU_ReadMem(32 bytes @ 0xE0041FD0) - Data: 04 00 00 00 00 00 00 00 00 00 00 00 00 00 00 00 ...  returns 0x00 (0001ms, 0744ms total)
T2C4C 000:958 JLINK_ReadMemU32(0xE000EF40, 0x0001 Items, ...) -- CPU is running -- CPU_ReadMem(4 bytes @ 0xE000EF40) - Data: 21 00 11 10  returns 0x01 (0001ms, 0745ms total)
T2C4C 000:959 JLINK_ReadMemU32(0xE000EF44, 0x0001 Items, ...) -- CPU is running -- CPU_ReadMem(4 bytes @ 0xE000EF44) - Data: 11 00 00 11  returns 0x01 (0000ms, 0745ms total)
T2C4C 000:959 JLINK_ReadMemU32(0xE000ED00, 0x0001 Items, ...) -- CPU is running -- CPU_ReadMem(4 bytes @ 0xE000ED00) - Data: 41 C2 0F 41  returns 0x01 (0001ms, 0746ms total)
T2C4C 000:960 JLINK_SetResetType(JLINKARM_RESET_TYPE_NORMAL)  returns JLINKARM_RESET_TYPE_NORMAL (0000ms, 0746ms total)
T2C4C 000:960 JLINK_Reset() -- CPU is running -- CPU_WriteMem(4 bytes @ 0xE000EDF0) -- CPU is running -- CPU_WriteMem(4 bytes @ 0xE000EDFC) >0x35 TIF> -- CPU is running -- CPU_WriteMem(4 bytes @ 0xE000ED0C) -- CPU is running -- CPU_ReadMem(4 bytes @ 0xE000EDF0) -- CPU is running -- CPU_ReadMem(4 bytes @ 0xE000EDF0) -- CPU is running -- CPU_WriteMem(4 bytes @ 0xE000EDF0) -- CPU is running -- CPU_WriteMem(4 bytes @ 0xE000EDFC) -- CPU is running -- CPU_ReadMem(4 bytes @ 0xE000EDF0)
 -- CPU_WriteMem(4 bytes @ 0xE0002000) -- CPU_ReadMem(4 bytes @ 0xE000EDFC) -- CPU_ReadMem(4 bytes @ 0xE0001000) (0023ms, 0769ms total)
T2C4C 000:983 JLINK_Halt()  returns 0x00 (0000ms, 0769ms total)
T2C4C 000:983 JLINK_IsHalted()  returns TRUE (0000ms, 0769ms total)
T2C4C 000:983 JLINK_ReadMemU32(0xE000EDF0, 0x0001 Items, ...) -- CPU_ReadMem(4 bytes @ 0xE000EDF0) - Data: 03 00 03 00  returns 0x01 (0001ms, 0770ms total)
T2C4C 000:984 JLINK_WriteU32(0xE000EDF0, 0xA05F0003) -- CPU_WriteMem(4 bytes @ 0xE000EDF0)  returns 0x00 (0000ms, 0770ms total)
T2C4C 000:984 JLINK_WriteU32(0xE000EDFC, 0x01000000) -- CPU_WriteMem(4 bytes @ 0xE000EDFC)  returns 0x00 (0001ms, 0771ms total)
T2C4C 001:023 JLINK_GetHWStatus(...)  returns 0x00 (0001ms, 0772ms total)
T2C4C 001:060 JLINK_GetNumBPUnits(Type = 0xFFFFFF00)  returns 0x06 (0000ms, 0772ms total)
T2C4C 001:060 JLINK_GetNumBPUnits(Type = 0xF0)  returns 0x2000 (0000ms, 0772ms total)
T2C4C 001:060 JLINK_GetNumWPUnits()  returns 0x04 (0000ms, 0772ms total)
T2C4C 001:097 JLINK_GetSpeed()  returns 0x7D0 (0000ms, 0772ms total)
T2C4C 001:118 JLINK_ReadMemU32(0xE000E004, 0x0001 Items, ...) -- CPU_ReadMem(4 bytes @ 0xE000E004) - Data: 02 00 00 00  returns 0x01 (0001ms, 0773ms total)
T2C4C 001:119 JLINK_ReadMemU32(0xE000E004, 0x0001 Items, ...) -- CPU_ReadMem(4 bytes @ 0xE000E004) - Data: 02 00 00 00  returns 0x01 (0001ms, 0774ms total)
T2C4C 001:120 JLINK_WriteMem(0xE0001000, 0x001C Bytes, ...) - Data: 01 00 00 00 00 00 00 00 00 00 00 00 00 00 00 00 ... -- CPU_WriteMem(28 bytes @ 0xE0001000)  returns 0x1C (0002ms, 0776ms total)
T2C4C 001:122 JLINK_ReadMem (0xE0001000, 0x001C Bytes, ...) -- CPU_ReadMem(28 bytes @ 0xE0001000) - Data: 01 00 00 40 00 00 00 00 00 00 00 00 00 00 00 00 ...  returns 0x00 (0001ms, 0777ms total)
T2C4C 001:123 JLINK_Halt()  returns 0x00 (0000ms, 0777ms total)
T2C4C 001:123 JLINK_IsHalted()  returns TRUE (0000ms, 0777ms total)
T2C4C 001:134 JLINK_WriteMem(0x20000000, 0x0198 Bytes, ...) - Data: 00 BE 0A E0 0D 78 2D 06 68 40 08 24 40 00 00 D3 ... -- CPU_WriteMem(408 bytes @ 0x20000000)  returns 0x198 (0006ms, 0783ms total)
T2C4C 001:140 JLINK_WriteReg(R0, 0x08000000)  returns 0x00 (0000ms, 0783ms total)
T2C4C 001:140 JLINK_WriteReg(R1, 0x0A037A00)  returns 0x00 (0000ms, 0783ms total)
T2C4C 001:140 JLINK_WriteReg(R2, 0x00000001)  returns 0x00 (0000ms, 0783ms total)
T2C4C 001:140 JLINK_WriteReg(R3, 0x00000000)  returns 0x00 (0000ms, 0783ms total)
T2C4C 001:140 JLINK_WriteReg(R4, 0x00000000)  returns 0x00 (0001ms, 0784ms total)
T2C4C 001:141 JLINK_WriteReg(R5, 0x00000000)  returns 0x00 (0000ms, 0784ms total)
T2C4C 001:141 JLINK_WriteReg(R6, 0x00000000)  returns 0x00 (0000ms, 0784ms total)
T2C4C 001:141 JLINK_WriteReg(R7, 0x00000000)  returns 0x00 (0000ms, 0784ms total)
T2C4C 001:141 JLINK_WriteReg(R8, 0x00000000)  returns 0x00 (0000ms, 0784ms total)
T2C4C 001:141 JLINK_WriteReg(R9, 0x20000194)  returns 0x00 (0000ms, 0784ms total)
T2C4C 001:141 JLINK_WriteReg(R10, 0x00000000)  returns 0x00 (0000ms, 0784ms total)
T2C4C 001:141 JLINK_WriteReg(R11, 0x00000000)  returns 0x00 (0000ms, 0784ms total)
T2C4C 001:141 JLINK_WriteReg(R12, 0x00000000)  returns 0x00 (0000ms, 0784ms total)
T2C4C 001:141 JLINK_WriteReg(R13 (SP), 0x20001000)  returns 0x00 (0000ms, 0784ms total)
T2C4C 001:141 JLINK_WriteReg(R14, 0x20000001)  returns 0x00 (0000ms, 0784ms total)
T2C4C 001:141 JLINK_WriteReg(R15 (PC), 0x2000005E)  returns 0x00 (0000ms, 0784ms total)
T2C4C 001:141 JLINK_WriteReg(XPSR, 0x01000000)  returns 0x00 (0000ms, 0784ms total)
T2C4C 001:141 JLINK_WriteReg(MSP, 0x20001000)  returns 0x00 (0000ms, 0784ms total)
T2C4C 001:141 JLINK_WriteReg(PSP, 0x20001000)  returns 0x00 (0000ms, 0784ms total)
T2C4C 001:141 JLINK_WriteReg(CFBP, 0x00000000)  returns 0x00 (0000ms, 0784ms total)
T2C4C 001:141 JLINK_SetBPEx(Addr = 0x20000000, Type = 0xFFFFFFF2) -- CPU_ReadMem(2 bytes @ 0x20000000)  returns 0x00000001 (0001ms, 0785ms total)
T2C4C 001:142 JLINK_Go() -- CPU_WriteMem(2 bytes @ 0x20000000) -- CPU_ReadMem(4 bytes @ 0xE0001000) -- CPU_WriteMem(4 bytes @ 0xE0002008) -- CPU_WriteMem(4 bytes @ 0xE000200C) -- CPU_WriteMem(4 bytes @ 0xE0002010) -- CPU_WriteMem(4 bytes @ 0xE0002014) -- CPU_WriteMem(4 bytes @ 0xE0002018) -- CPU_WriteMem(4 bytes @ 0xE000201C) -- CPU_WriteMem(4 bytes @ 0xE0001004) (0007ms, 0792ms total)
T2C4C 001:149 JLINK_IsHalted() -- CPU_ReadMem(2 bytes @ 0x20000000)  returns TRUE (0006ms, 0798ms total)
T2C4C 001:155 JLINK_ReadReg(R15 (PC))  returns 0x20000000 (0000ms, 0792ms total)
T2C4C 001:155 JLINK_ClrBPEx(BPHandle = 0x00000001)  returns 0x00 (0000ms, 0792ms total)
T2C4C 001:155 JLINK_ReadReg(R0)  returns 0x00000000 (0000ms, 0792ms total)
T2C4C 001:156 JLINK_WriteReg(R0, 0x08000000)  returns 0x00 (0000ms, 0792ms total)
T2C4C 001:156 JLINK_WriteReg(R1, 0x00004000)  returns 0x00 (0000ms, 0792ms total)
T2C4C 001:156 JLINK_WriteReg(R2, 0x000000FF)  returns 0x00 (0000ms, 0792ms total)
T2C4C 001:156 JLINK_WriteReg(R3, 0x00000000)  returns 0x00 (0000ms, 0792ms total)
T2C4C 001:156 JLINK_WriteReg(R4, 0x00000000)  returns 0x00 (0000ms, 0792ms total)
T2C4C 001:156 JLINK_WriteReg(R5, 0x00000000)  returns 0x00 (0000ms, 0792ms total)
T2C4C 001:156 JLINK_WriteReg(R6, 0x00000000)  returns 0x00 (0000ms, 0792ms total)
T2C4C 001:156 JLINK_WriteReg(R7, 0x00000000)  returns 0x00 (0000ms, 0792ms total)
T2C4C 001:156 JLINK_WriteReg(R8, 0x00000000)  returns 0x00 (0000ms, 0792ms total)
T2C4C 001:156 JLINK_WriteReg(R9, 0x20000194)  returns 0x00 (0000ms, 0792ms total)
T2C4C 001:156 JLINK_WriteReg(R10, 0x00000000)  returns 0x00 (0000ms, 0792ms total)
T2C4C 001:156 JLINK_WriteReg(R11, 0x00000000)  returns 0x00 (0000ms, 0792ms total)
T2C4C 001:157 JLINK_WriteReg(R12, 0x00000000)  returns 0x00 (0000ms, 0793ms total)
T2C4C 001:157 JLINK_WriteReg(R13 (SP), 0x20001000)  returns 0x00 (0000ms, 0793ms total)
T2C4C 001:157 JLINK_WriteReg(R14, 0x20000001)  returns 0x00 (0000ms, 0793ms total)
T2C4C 001:157 JLINK_WriteReg(R15 (PC), 0x20000020)  returns 0x00 (0000ms, 0793ms total)
T2C4C 001:157 JLINK_WriteReg(XPSR, 0x01000000)  returns 0x00 (0000ms, 0793ms total)
T2C4C 001:157 JLINK_WriteReg(MSP, 0x20001000)  returns 0x00 (0000ms, 0793ms total)
T2C4C 001:157 JLINK_WriteReg(PSP, 0x20001000)  returns 0x00 (0000ms, 0793ms total)
T2C4C 001:157 JLINK_WriteReg(CFBP, 0x00000000)  returns 0x00 (0000ms, 0793ms total)
T2C4C 001:157 JLINK_SetBPEx(Addr = 0x20000000, Type = 0xFFFFFFF2)  returns 0x00000002 (0000ms, 0793ms total)
T2C4C 001:157 JLINK_Go() -- CPU_ReadMem(4 bytes @ 0xE0001000) (0003ms, 0796ms total)
T2C4C 001:160 JLINK_IsHalted() -- CPU_ReadMem(2 bytes @ 0x20000000)  returns TRUE (0005ms, 0801ms total)
T2C4C 001:165 JLINK_ReadReg(R15 (PC))  returns 0x20000000 (0000ms, 0796ms total)
T2C4C 001:165 JLINK_ClrBPEx(BPHandle = 0x00000002)  returns 0x00 (0001ms, 0797ms total)
T2C4C 001:166 JLINK_ReadReg(R0)  returns 0x00000001 (0000ms, 0797ms total)
T2C4C 001:166 JLINK_WriteReg(R0, 0x08000000)  returns 0x00 (0000ms, 0797ms total)
T2C4C 001:166 JLINK_WriteReg(R1, 0x00004000)  returns 0x00 (0000ms, 0797ms total)
T2C4C 001:166 JLINK_WriteReg(R2, 0x000000FF)  returns 0x00 (0000ms, 0797ms total)
T2C4C 001:166 JLINK_WriteReg(R3, 0x00000000)  returns 0x00 (0000ms, 0797ms total)
T2C4C 001:166 JLINK_WriteReg(R4, 0x00000000)  returns 0x00 (0000ms, 0797ms total)
T2C4C 001:166 JLINK_WriteReg(R5, 0x00000000)  returns 0x00 (0000ms, 0797ms total)
T2C4C 001:166 JLINK_WriteReg(R6, 0x00000000)  returns 0x00 (0000ms, 0797ms total)
T2C4C 001:166 JLINK_WriteReg(R7, 0x00000000)  returns 0x00 (0000ms, 0797ms total)
T2C4C 001:166 JLINK_WriteReg(R8, 0x00000000)  returns 0x00 (0000ms, 0797ms total)
T2C4C 001:166 JLINK_WriteReg(R9, 0x20000194)  returns 0x00 (0000ms, 0797ms total)
T2C4C 001:166 JLINK_WriteReg(R10, 0x00000000)  returns 0x00 (0000ms, 0797ms total)
T2C4C 001:166 JLINK_WriteReg(R11, 0x00000000)  returns 0x00 (0000ms, 0797ms total)
T2C4C 001:166 JLINK_WriteReg(R12, 0x00000000)  returns 0x00 (0000ms, 0797ms total)
T2C4C 001:166 JLINK_WriteReg(R13 (SP), 0x20001000)  returns 0x00 (0000ms, 0797ms total)
T2C4C 001:166 JLINK_WriteReg(R14, 0x20000001)  returns 0x00 (0000ms, 0797ms total)
T2C4C 001:167 JLINK_WriteReg(R15 (PC), 0x200000D4)  returns 0x00 (0000ms, 0797ms total)
T2C4C 001:167 JLINK_WriteReg(XPSR, 0x01000000)  returns 0x00 (0000ms, 0797ms total)
T2C4C 001:167 JLINK_WriteReg(MSP, 0x20001000)  returns 0x00 (0000ms, 0797ms total)
T2C4C 001:167 JLINK_WriteReg(PSP, 0x20001000)  returns 0x00 (0000ms, 0797ms total)
T2C4C 001:167 JLINK_WriteReg(CFBP, 0x00000000)  returns 0x00 (0000ms, 0797ms total)
T2C4C 001:167 JLINK_SetBPEx(Addr = 0x20000000, Type = 0xFFFFFFF2)  returns 0x00000003 (0000ms, 0797ms total)
T2C4C 001:167 JLINK_Go() -- CPU_ReadMem(4 bytes @ 0xE0001000) (0003ms, 0800ms total)
T2C4C 001:170 JLINK_IsHalted()  returns FALSE (0008ms, 0808ms total)
T2C4C 001:372 JLINK_IsHalted()  returns FALSE (0000ms, 0800ms total)
T2C4C 001:391 JLINK_IsHalted()  returns FALSE (0000ms, 0800ms total)
T2C4C 001:393 JLINK_IsHalted()  returns FALSE (0000ms, 0800ms total)
T2C4C 001:395 JLINK_IsHalted()  returns FALSE (0000ms, 0800ms total)
T2C4C 001:399 JLINK_IsHalted()  returns FALSE (0000ms, 0800ms total)
T2C4C 001:401 JLINK_IsHalted()  returns FALSE (0000ms, 0800ms total)
T2C4C 001:407 JLINK_IsHalted()  returns FALSE (0000ms, 0800ms total)
T2C4C 001:409 JLINK_IsHalted()  returns FALSE (0000ms, 0800ms total)
T2C4C 001:411 JLINK_IsHalted()  returns FALSE (0000ms, 0800ms total)
T2C4C 001:413 JLINK_IsHalted()  returns FALSE (0000ms, 0800ms total)
T2C4C 001:416 JLINK_IsHalted()  returns FALSE (0000ms, 0800ms total)
T2C4C 001:418 JLINK_IsHalted()  returns FALSE (0000ms, 0800ms total)
T2C4C 001:420 JLINK_IsHalted()  returns FALSE (0000ms, 0800ms total)
T2C4C 001:422 JLINK_IsHalted()  returns FALSE (0000ms, 0800ms total)
T2C4C 001:425 JLINK_IsHalted()  returns FALSE (0000ms, 0800ms total)
T2C4C 001:427 JLINK_IsHalted()  returns FALSE (0000ms, 0800ms total)
T2C4C 001:429 JLINK_IsHalted()  returns FALSE (0000ms, 0800ms total)
T2C4C 001:431 JLINK_IsHalted()  returns FALSE (0000ms, 0800ms total)
T2C4C 001:433 JLINK_IsHalted()  returns FALSE (0000ms, 0800ms total)
T2C4C 001:435 JLINK_IsHalted()  returns FALSE (0000ms, 0800ms total)
T2C4C 001:442 JLINK_IsHalted()  returns FALSE (0000ms, 0800ms total)
T2C4C 001:444 JLINK_IsHalted()  returns FALSE (0000ms, 0800ms total)
T2C4C 001:446 JLINK_IsHalted()  returns FALSE (0000ms, 0800ms total)
T2C4C 001:448 JLINK_IsHalted()  returns FALSE (0000ms, 0800ms total)
T2C4C 001:450 JLINK_IsHalted()  returns FALSE (0000ms, 0800ms total)
T2C4C 001:452 JLINK_IsHalted()  returns FALSE (0000ms, 0800ms total)
T2C4C 001:454 JLINK_IsHalted()  returns FALSE (0000ms, 0800ms total)
T2C4C 001:456 JLINK_IsHalted()  returns FALSE (0000ms, 0800ms total)
T2C4C 001:461 JLINK_IsHalted()  returns FALSE (0000ms, 0800ms total)
T2C4C 001:463 JLINK_IsHalted()  returns FALSE (0000ms, 0800ms total)
T2C4C 001:465 JLINK_IsHalted()  returns FALSE (0000ms, 0800ms total)
T2C4C 001:468 JLINK_IsHalted()  returns FALSE (0000ms, 0800ms total)
T2C4C 001:470 JLINK_IsHalted()  returns FALSE (0000ms, 0800ms total)
T2C4C 001:472 JLINK_IsHalted()  returns FALSE (0000ms, 0800ms total)
T2C4C 001:474 JLINK_IsHalted()  returns FALSE (0000ms, 0800ms total)
T2C4C 001:476 JLINK_IsHalted()  returns FALSE (0000ms, 0800ms total)
T2C4C 001:478 JLINK_IsHalted()  returns FALSE (0000ms, 0800ms total)
T2C4C 001:480 JLINK_IsHalted()  returns FALSE (0000ms, 0800ms total)
T2C4C 001:492 JLINK_IsHalted()  returns FALSE (0000ms, 0800ms total)
T2C4C 001:494 JLINK_IsHalted()  returns FALSE (0000ms, 0800ms total)
T2C4C 001:496 JLINK_IsHalted()  returns FALSE (0000ms, 0800ms total)
T2C4C 001:498 JLINK_IsHalted()  returns FALSE (0000ms, 0800ms total)
T2C4C 001:500 JLINK_IsHalted()  returns FALSE (0000ms, 0800ms total)
T2C4C 001:502 JLINK_IsHalted()  returns FALSE (0000ms, 0800ms total)
T2C4C 001:507 JLINK_IsHalted()  returns FALSE (0000ms, 0800ms total)
T2C4C 001:509 JLINK_IsHalted()  returns FALSE (0000ms, 0800ms total)
T2C4C 001:511 JLINK_IsHalted()  returns FALSE (0000ms, 0800ms total)
T2C4C 001:513 JLINK_IsHalted()  returns FALSE (0000ms, 0800ms total)
T2C4C 001:515 JLINK_IsHalted()  returns FALSE (0000ms, 0800ms total)
T2C4C 001:517 JLINK_IsHalted()  returns FALSE (0000ms, 0800ms total)
T2C4C 001:519 JLINK_IsHalted()  returns FALSE (0000ms, 0800ms total)
T2C4C 001:521 JLINK_IsHalted()  returns FALSE (0000ms, 0800ms total)
T2C4C 001:523 JLINK_IsHalted()  returns FALSE (0000ms, 0800ms total)
T2C4C 001:525 JLINK_IsHalted()  returns FALSE (0000ms, 0800ms total)
T2C4C 001:527 JLINK_IsHalted()  returns FALSE (0000ms, 0800ms total)
T2C4C 001:529 JLINK_IsHalted()  returns FALSE (0000ms, 0800ms total)
T2C4C 001:531 JLINK_IsHalted()  returns FALSE (0000ms, 0800ms total)
T2C4C 001:533 JLINK_IsHalted()  returns FALSE (0000ms, 0800ms total)
T2C4C 001:535 JLINK_IsHalted()  returns FALSE (0000ms, 0800ms total)
T2C4C 001:537 JLINK_IsHalted()  returns FALSE (0000ms, 0800ms total)
T2C4C 001:539 JLINK_IsHalted()  returns FALSE (0000ms, 0800ms total)
T2C4C 001:541 JLINK_IsHalted()  returns FALSE (0000ms, 0800ms total)
T2C4C 001:543 JLINK_IsHalted()  returns FALSE (0000ms, 0800ms total)
T2C4C 001:545 JLINK_IsHalted()  returns FALSE (0000ms, 0800ms total)
T2C4C 001:548 JLINK_IsHalted() -- CPU_ReadMem(2 bytes @ 0x20000000)  returns TRUE (0005ms, 0805ms total)
T2C4C 001:553 JLINK_ReadReg(R15 (PC))  returns 0x20000000 (0000ms, 0800ms total)
T2C4C 001:553 JLINK_ClrBPEx(BPHandle = 0x00000003)  returns 0x00 (0000ms, 0800ms total)
T2C4C 001:553 JLINK_ReadReg(R0)  returns 0x00000000 (0000ms, 0800ms total)
T2C4C 001:555 JLINK_WriteReg(R0, 0x08004000)  returns 0x00 (0000ms, 0800ms total)
T2C4C 001:555 JLINK_WriteReg(R1, 0x00004000)  returns 0x00 (0000ms, 0800ms total)
T2C4C 001:555 JLINK_WriteReg(R2, 0x000000FF)  returns 0x00 (0000ms, 0800ms total)
T2C4C 001:555 JLINK_WriteReg(R3, 0x00000000)  returns 0x00 (0000ms, 0800ms total)
T2C4C 001:555 JLINK_WriteReg(R4, 0x00000000)  returns 0x00 (0000ms, 0800ms total)
T2C4C 001:555 JLINK_WriteReg(R5, 0x00000000)  returns 0x00 (0000ms, 0800ms total)
T2C4C 001:555 JLINK_WriteReg(R6, 0x00000000)  returns 0x00 (0000ms, 0800ms total)
T2C4C 001:555 JLINK_WriteReg(R7, 0x00000000)  returns 0x00 (0000ms, 0800ms total)
T2C4C 001:555 JLINK_WriteReg(R8, 0x00000000)  returns 0x00 (0000ms, 0800ms total)
T2C4C 001:555 JLINK_WriteReg(R9, 0x20000194)  returns 0x00 (0000ms, 0800ms total)
T2C4C 001:555 JLINK_WriteReg(R10, 0x00000000)  returns 0x00 (0000ms, 0800ms total)
T2C4C 001:555 JLINK_WriteReg(R11, 0x00000000)  returns 0x00 (0000ms, 0800ms total)
T2C4C 001:555 JLINK_WriteReg(R12, 0x00000000)  returns 0x00 (0000ms, 0800ms total)
T2C4C 001:555 JLINK_WriteReg(R13 (SP), 0x20001000)  returns 0x00 (0000ms, 0800ms total)
T2C4C 001:555 JLINK_WriteReg(R14, 0x20000001)  returns 0x00 (0000ms, 0800ms total)
T2C4C 001:555 JLINK_WriteReg(R15 (PC), 0x20000020)  returns 0x00 (0000ms, 0800ms total)
T2C4C 001:555 JLINK_WriteReg(XPSR, 0x01000000)  returns 0x00 (0000ms, 0800ms total)
T2C4C 001:555 JLINK_WriteReg(MSP, 0x20001000)  returns 0x00 (0000ms, 0800ms total)
T2C4C 001:555 JLINK_WriteReg(PSP, 0x20001000)  returns 0x00 (0000ms, 0800ms total)
T2C4C 001:555 JLINK_WriteReg(CFBP, 0x00000000)  returns 0x00 (0000ms, 0800ms total)
T2C4C 001:555 JLINK_SetBPEx(Addr = 0x20000000, Type = 0xFFFFFFF2)  returns 0x00000004 (0000ms, 0800ms total)
T2C4C 001:555 JLINK_Go() -- CPU_ReadMem(4 bytes @ 0xE0001000) (0004ms, 0804ms total)
T2C4C 001:559 JLINK_IsHalted() -- CPU_ReadMem(2 bytes @ 0x20000000)  returns TRUE (0006ms, 0810ms total)
T2C4C 001:565 JLINK_ReadReg(R15 (PC))  returns 0x20000000 (0000ms, 0804ms total)
T2C4C 001:565 JLINK_ClrBPEx(BPHandle = 0x00000004)  returns 0x00 (0000ms, 0804ms total)
T2C4C 001:565 JLINK_ReadReg(R0)  returns 0x00000001 (0000ms, 0804ms total)
T2C4C 001:565 JLINK_WriteReg(R0, 0x08004000)  returns 0x00 (0000ms, 0804ms total)
T2C4C 001:565 JLINK_WriteReg(R1, 0x00004000)  returns 0x00 (0000ms, 0804ms total)
T2C4C 001:565 JLINK_WriteReg(R2, 0x000000FF)  returns 0x00 (0000ms, 0804ms total)
T2C4C 001:565 JLINK_WriteReg(R3, 0x00000000)  returns 0x00 (0000ms, 0804ms total)
T2C4C 001:565 JLINK_WriteReg(R4, 0x00000000)  returns 0x00 (0000ms, 0804ms total)
T2C4C 001:565 JLINK_WriteReg(R5, 0x00000000)  returns 0x00 (0000ms, 0804ms total)
T2C4C 001:565 JLINK_WriteReg(R6, 0x00000000)  returns 0x00 (0000ms, 0804ms total)
T2C4C 001:565 JLINK_WriteReg(R7, 0x00000000)  returns 0x00 (0000ms, 0804ms total)
T2C4C 001:565 JLINK_WriteReg(R8, 0x00000000)  returns 0x00 (0000ms, 0804ms total)
T2C4C 001:565 JLINK_WriteReg(R9, 0x20000194)  returns 0x00 (0000ms, 0804ms total)
T2C4C 001:565 JLINK_WriteReg(R10, 0x00000000)  returns 0x00 (0000ms, 0804ms total)
T2C4C 001:565 JLINK_WriteReg(R11, 0x00000000)  returns 0x00 (0000ms, 0804ms total)
T2C4C 001:565 JLINK_WriteReg(R12, 0x00000000)  returns 0x00 (0000ms, 0804ms total)
T2C4C 001:565 JLINK_WriteReg(R13 (SP), 0x20001000)  returns 0x00 (0001ms, 0805ms total)
T2C4C 001:566 JLINK_WriteReg(R14, 0x20000001)  returns 0x00 (0000ms, 0805ms total)
T2C4C 001:566 JLINK_WriteReg(R15 (PC), 0x200000D4)  returns 0x00 (0000ms, 0805ms total)
T2C4C 001:566 JLINK_WriteReg(XPSR, 0x01000000)  returns 0x00 (0000ms, 0805ms total)
T2C4C 001:566 JLINK_WriteReg(MSP, 0x20001000)  returns 0x00 (0000ms, 0805ms total)
T2C4C 001:566 JLINK_WriteReg(PSP, 0x20001000)  returns 0x00 (0000ms, 0805ms total)
T2C4C 001:566 JLINK_WriteReg(CFBP, 0x00000000)  returns 0x00 (0000ms, 0805ms total)
T2C4C 001:566 JLINK_SetBPEx(Addr = 0x20000000, Type = 0xFFFFFFF2)  returns 0x00000005 (0000ms, 0805ms total)
T2C4C 001:566 JLINK_Go() -- CPU_ReadMem(4 bytes @ 0xE0001000) (0003ms, 0808ms total)
T2C4C 001:569 JLINK_IsHalted()  returns FALSE (0001ms, 0809ms total)
T2C4C 001:572 JLINK_IsHalted()  returns FALSE (0001ms, 0809ms total)
T2C4C 001:575 JLINK_IsHalted()  returns FALSE (0001ms, 0809ms total)
T2C4C 001:578 JLINK_IsHalted()  returns FALSE (0000ms, 0808ms total)
T2C4C 001:580 JLINK_IsHalted()  returns FALSE (0000ms, 0808ms total)
T2C4C 001:582 JLINK_IsHalted()  returns FALSE (0001ms, 0809ms total)
T2C4C 001:585 JLINK_IsHalted()  returns FALSE (0001ms, 0809ms total)
T2C4C 001:588 JLINK_IsHalted()  returns FALSE (0001ms, 0809ms total)
T2C4C 001:591 JLINK_IsHalted()  returns FALSE (0000ms, 0808ms total)
T2C4C 001:693 JLINK_IsHalted()  returns FALSE (0000ms, 0808ms total)
T2C4C 001:710 JLINK_IsHalted()  returns FALSE (0001ms, 0809ms total)
T2C4C 001:713 JLINK_IsHalted()  returns FALSE (0001ms, 0809ms total)
T2C4C 001:716 JLINK_IsHalted()  returns FALSE (0000ms, 0808ms total)
T2C4C 001:722 JLINK_IsHalted()  returns FALSE (0001ms, 0809ms total)
T2C4C 001:725 JLINK_IsHalted()  returns FALSE (0000ms, 0808ms total)
T2C4C 001:728 JLINK_IsHalted()  returns FALSE (0001ms, 0809ms total)
T2C4C 001:731 JLINK_IsHalted()  returns FALSE (0001ms, 0809ms total)
T2C4C 001:734 JLINK_IsHalted()  returns FALSE (0000ms, 0808ms total)
T2C4C 001:737 JLINK_IsHalted()  returns FALSE (0000ms, 0808ms total)
T2C4C 001:740 JLINK_IsHalted()  returns FALSE (0000ms, 0808ms total)
T2C4C 001:743 JLINK_IsHalted()  returns FALSE (0000ms, 0808ms total)
T2C4C 001:745 JLINK_IsHalted()  returns FALSE (0001ms, 0809ms total)
T2C4C 001:749 JLINK_IsHalted()  returns FALSE (0000ms, 0808ms total)
T2C4C 001:752 JLINK_IsHalted()  returns FALSE (0000ms, 0808ms total)
T2C4C 001:755 JLINK_IsHalted()  returns FALSE (0000ms, 0808ms total)
T2C4C 001:758 JLINK_IsHalted()  returns FALSE (0000ms, 0808ms total)
T2C4C 001:761 JLINK_IsHalted()  returns FALSE (0000ms, 0808ms total)
T2C4C 001:764 JLINK_IsHalted()  returns FALSE (0000ms, 0808ms total)
T2C4C 001:766 JLINK_IsHalted()  returns FALSE (0000ms, 0808ms total)
T2C4C 001:769 JLINK_IsHalted()  returns FALSE (0000ms, 0808ms total)
T2C4C 001:775 JLINK_IsHalted()  returns FALSE (0000ms, 0808ms total)
T2C4C 001:776 JLINK_IsHalted()  returns FALSE (0000ms, 0808ms total)
T2C4C 001:779 JLINK_IsHalted()  returns FALSE (0000ms, 0808ms total)
T2C4C 001:781 JLINK_IsHalted()  returns FALSE (0001ms, 0809ms total)
T2C4C 001:784 JLINK_IsHalted()  returns FALSE (0001ms, 0809ms total)
T2C4C 001:787 JLINK_IsHalted()  returns FALSE (0001ms, 0809ms total)
T2C4C 001:790 JLINK_IsHalted()  returns FALSE (0001ms, 0809ms total)
T2C4C 001:793 JLINK_IsHalted()  returns FALSE (0001ms, 0809ms total)
T2C4C 001:796 JLINK_IsHalted()  returns FALSE (0001ms, 0809ms total)
T2C4C 001:799 JLINK_IsHalted()  returns FALSE (0001ms, 0809ms total)
T2C4C 001:802 JLINK_IsHalted()  returns FALSE (0001ms, 0809ms total)
T2C4C 001:805 JLINK_IsHalted()  returns FALSE (0001ms, 0809ms total)
T2C4C 001:808 JLINK_IsHalted()  returns FALSE (0001ms, 0809ms total)
T2C4C 001:811 JLINK_IsHalted()  returns FALSE (0001ms, 0809ms total)
T2C4C 001:814 JLINK_IsHalted()  returns FALSE (0001ms, 0809ms total)
T2C4C 001:822 JLINK_IsHalted()  returns FALSE (0001ms, 0809ms total)
T2C4C 001:825 JLINK_IsHalted()  returns FALSE (0001ms, 0809ms total)
T2C4C 001:828 JLINK_IsHalted()  returns FALSE (0001ms, 0809ms total)
T2C4C 001:831 JLINK_IsHalted()  returns FALSE (0001ms, 0809ms total)
T2C4C 001:834 JLINK_IsHalted()  returns FALSE (0001ms, 0809ms total)
T2C4C 001:837 JLINK_IsHalted()  returns FALSE (0001ms, 0809ms total)
T2C4C 001:840 JLINK_IsHalted()  returns FALSE (0000ms, 0808ms total)
T2C4C 001:842 JLINK_IsHalted()  returns FALSE (0000ms, 0808ms total)
T2C4C 001:844 JLINK_IsHalted()  returns FALSE (0001ms, 0809ms total)
T2C4C 001:847 JLINK_IsHalted()  returns FALSE (0001ms, 0809ms total)
T2C4C 001:850 JLINK_IsHalted()  returns FALSE (0001ms, 0809ms total)
T2C4C 001:853 JLINK_IsHalted()  returns FALSE (0001ms, 0809ms total)
T2C4C 001:856 JLINK_IsHalted()  returns FALSE (0001ms, 0809ms total)
T2C4C 001:859 JLINK_IsHalted()  returns FALSE (0001ms, 0809ms total)
T2C4C 001:862 JLINK_IsHalted()  returns FALSE (0001ms, 0809ms total)
T2C4C 001:865 JLINK_IsHalted()  returns FALSE (0001ms, 0809ms total)
T2C4C 001:868 JLINK_IsHalted()  returns FALSE (0001ms, 0809ms total)
T2C4C 001:871 JLINK_IsHalted()  returns FALSE (0001ms, 0809ms total)
T2C4C 001:874 JLINK_IsHalted()  returns FALSE (0001ms, 0809ms total)
T2C4C 001:877 JLINK_IsHalted()  returns FALSE (0001ms, 0809ms total)
T2C4C 001:880 JLINK_IsHalted()  returns FALSE (0000ms, 0808ms total)
T2C4C 001:882 JLINK_IsHalted()  returns FALSE (0001ms, 0809ms total)
T2C4C 001:885 JLINK_IsHalted()  returns FALSE (0001ms, 0809ms total)
T2C4C 001:888 JLINK_IsHalted()  returns FALSE (0001ms, 0809ms total)
T2C4C 001:891 JLINK_IsHalted()  returns FALSE (0001ms, 0809ms total)
T2C4C 001:894 JLINK_IsHalted()  returns FALSE (0001ms, 0809ms total)
T2C4C 001:897 JLINK_IsHalted()  returns FALSE (0000ms, 0808ms total)
T2C4C 001:900 JLINK_IsHalted()  returns FALSE (0000ms, 0808ms total)
T2C4C 001:902 JLINK_IsHalted()  returns FALSE (0000ms, 0808ms total)
T2C4C 001:904 JLINK_IsHalted()  returns FALSE (0000ms, 0808ms total)
T2C4C 001:906 JLINK_IsHalted()  returns FALSE (0000ms, 0808ms total)
T2C4C 001:908 JLINK_IsHalted()  returns FALSE (0000ms, 0808ms total)
T2C4C 001:910 JLINK_IsHalted()  returns FALSE (0000ms, 0808ms total)
T2C4C 001:912 JLINK_IsHalted()  returns FALSE (0000ms, 0808ms total)
T2C4C 001:914 JLINK_IsHalted()  returns FALSE (0000ms, 0808ms total)
T2C4C 001:916 JLINK_IsHalted()  returns FALSE (0000ms, 0808ms total)
T2C4C 001:918 JLINK_IsHalted()  returns FALSE (0000ms, 0808ms total)
T2C4C 001:920 JLINK_IsHalted()  returns FALSE (0000ms, 0808ms total)
T2C4C 001:922 JLINK_IsHalted()  returns FALSE (0000ms, 0808ms total)
T2C4C 001:924 JLINK_ReadReg(R0) -- CPU is running
  ***** Error: Can not read register 0 (R0) while CPU is running  returns 0x00000000 (0002ms, 0810ms total)
T2C4C 001:930 JLINK_ReadReg(R1) -- CPU is running
  ***** Error: Can not read register 1 (R1) while CPU is running  returns 0x00000000 (0001ms, 0811ms total)
T2C4C 001:937 JLINK_ReadReg(R2) -- CPU is running
  ***** Error: Can not read register 2 (R2) while CPU is running  returns 0x00000000 (0000ms, 0811ms total)
T2C4C 001:942 JLINK_ReadReg(R3) -- CPU is running
  ***** Error: Can not read register 3 (R3) while CPU is running  returns 0x00000000 (0001ms, 0812ms total)
T2C4C 001:948 JLINK_ReadReg(R4) -- CPU_ReadMem(2 bytes @ 0x20000000)  returns 0x00000000 (0006ms, 0818ms total)
T2C4C 001:954 JLINK_ReadReg(R5)  returns 0x00000000 (0000ms, 0818ms total)
T2C4C 001:954 JLINK_ReadReg(R6)  returns 0x00000000 (0000ms, 0818ms total)
T2C4C 001:954 JLINK_ReadReg(R7)  returns 0x00000000 (0000ms, 0818ms total)
T2C4C 001:954 JLINK_ReadReg(R8)  returns 0x00000000 (0000ms, 0818ms total)
T2C4C 001:954 JLINK_ReadReg(R9)  returns 0x20000194 (0000ms, 0818ms total)
T2C4C 001:954 JLINK_ReadReg(R10)  returns 0x00000000 (0000ms, 0818ms total)
T2C4C 001:954 JLINK_ReadReg(R11)  returns 0x00000000 (0000ms, 0818ms total)
T2C4C 001:954 JLINK_ReadReg(R12)  returns 0x00000000 (0000ms, 0818ms total)
T2C4C 001:954 JLINK_ReadReg(R13 (SP))  returns 0x20001000 (0000ms, 0818ms total)
T2C4C 001:954 JLINK_ReadReg(R14)  returns 0x200000DB (0000ms, 0818ms total)
T2C4C 001:954 JLINK_ReadReg(R15 (PC))  returns 0x20000000 (0000ms, 0818ms total)
T2C4C 001:954 JLINK_ReadReg(XPSR)  returns 0x41000000 (0000ms, 0818ms total)
T2C4C 001:954 JLINK_ReadReg(MSP)  returns 0x20001000 (0000ms, 0818ms total)
T2C4C 001:954 JLINK_ReadReg(PSP)  returns 0x20001000 (0000ms, 0818ms total)
T2C4C 001:954 JLINK_ReadReg(CFBP)  returns 0x00000000 (0000ms, 0818ms total)
T2C4C 001:954 JLINK_ReadReg(FPSCR)  returns 0x00000000 (0008ms, 0826ms total)
T2C4C 001:962 JLINK_ReadReg(FPS0)  returns 0x00000000 (0000ms, 0826ms total)
T2C4C 001:962 JLINK_ReadReg(FPS1)  returns 0x00000000 (0000ms, 0826ms total)
T2C4C 001:962 JLINK_ReadReg(FPS2)  returns 0x00000000 (0000ms, 0826ms total)
T2C4C 001:962 JLINK_ReadReg(FPS3)  returns 0x00000000 (0000ms, 0826ms total)
T2C4C 001:962 JLINK_ReadReg(FPS4)  returns 0x00000000 (0000ms, 0826ms total)
T2C4C 001:962 JLINK_ReadReg(FPS5)  returns 0x00000000 (0000ms, 0826ms total)
T2C4C 001:962 JLINK_ReadReg(FPS6)  returns 0x00000000 (0000ms, 0826ms total)
T2C4C 001:962 JLINK_ReadReg(FPS7)  returns 0x00000000 (0000ms, 0826ms total)
T2C4C 001:962 JLINK_ReadReg(FPS8)  returns 0x00000000 (0000ms, 0826ms total)
T2C4C 001:962 JLINK_ReadReg(FPS9)  returns 0x00000000 (0000ms, 0826ms total)
T2C4C 001:962 JLINK_ReadReg(FPS10)  returns 0x00000000 (0000ms, 0826ms total)
T2C4C 001:962 JLINK_ReadReg(FPS11)  returns 0x00000000 (0001ms, 0827ms total)
T2C4C 001:963 JLINK_ReadReg(FPS12)  returns 0x00000000 (0000ms, 0827ms total)
T2C4C 001:963 JLINK_ReadReg(FPS13)  returns 0x00000000 (0000ms, 0827ms total)
T2C4C 001:963 JLINK_ReadReg(FPS14)  returns 0x00000000 (0000ms, 0827ms total)
T2C4C 001:963 JLINK_ReadReg(FPS15)  returns 0x00000000 (0000ms, 0827ms total)
T2C4C 001:963 JLINK_ReadReg(FPS16)  returns 0x00000000 (0000ms, 0827ms total)
T2C4C 001:963 JLINK_ReadReg(FPS17)  returns 0x00000000 (0000ms, 0827ms total)
T2C4C 001:963 JLINK_ReadReg(FPS18)  returns 0x00000000 (0000ms, 0827ms total)
T2C4C 001:963 JLINK_ReadReg(FPS19)  returns 0x00000000 (0000ms, 0827ms total)
T2C4C 001:963 JLINK_ReadReg(FPS20)  returns 0x00000000 (0000ms, 0827ms total)
T2C4C 001:963 JLINK_ReadReg(FPS21)  returns 0x00000000 (0000ms, 0827ms total)
T2C4C 001:963 JLINK_ReadReg(FPS22)  returns 0x00000000 (0000ms, 0827ms total)
T2C4C 001:963 JLINK_ReadReg(FPS23)  returns 0x00000000 (0000ms, 0827ms total)
T2C4C 001:963 JLINK_ReadReg(FPS24)  returns 0x00000000 (0000ms, 0827ms total)
T2C4C 001:963 JLINK_ReadReg(FPS25)  returns 0x00000000 (0000ms, 0827ms total)
T2C4C 001:963 JLINK_ReadReg(FPS26)  returns 0x00000000 (0000ms, 0827ms total)
T2C4C 001:963 JLINK_ReadReg(FPS27)  returns 0x00000000 (0000ms, 0827ms total)
T2C4C 001:963 JLINK_ReadReg(FPS28)  returns 0x00000000 (0000ms, 0827ms total)
T2C4C 001:963 JLINK_ReadReg(FPS29)  returns 0x00000000 (0000ms, 0827ms total)
T2C4C 001:963 JLINK_ReadReg(FPS30)  returns 0x00000000 (0000ms, 0827ms total)
T2C4C 001:963 JLINK_ReadReg(FPS31)  returns 0x00000000 (0000ms, 0827ms total)
T2C4C 001:998 JLINK_IsHalted()  returns TRUE (0000ms, 0827ms total)
T2C4C 001:998 JLINK_ReadReg(R15 (PC))  returns 0x20000000 (0000ms, 0827ms total)
T2C4C 001:998 JLINK_ClrBPEx(BPHandle = 0x00000005)  returns 0x00 (0000ms, 0827ms total)
T2C4C 001:998 JLINK_ReadReg(R0)  returns 0x00000000 (0000ms, 0827ms total)
T2C4C 001:999 JLINK_WriteReg(R0, 0x00000001)  returns 0x00 (0000ms, 0827ms total)
T2C4C 001:999 JLINK_WriteReg(R1, 0x00000000)  returns 0x00 (0000ms, 0827ms total)
T2C4C 001:999 JLINK_WriteReg(R2, 0x00000000)  returns 0x00 (0000ms, 0827ms total)
T2C4C 001:999 JLINK_WriteReg(R3, 0x00000000)  returns 0x00 (0000ms, 0827ms total)
T2C4C 001:999 JLINK_WriteReg(R4, 0x00000000)  returns 0x00 (0000ms, 0827ms total)
T2C4C 001:999 JLINK_WriteReg(R5, 0x00000000)  returns 0x00 (0000ms, 0827ms total)
T2C4C 001:999 JLINK_WriteReg(R6, 0x00000000)  returns 0x00 (0000ms, 0827ms total)
T2C4C 001:999 JLINK_WriteReg(R7, 0x00000000)  returns 0x00 (0000ms, 0827ms total)
T2C4C 001:999 JLINK_WriteReg(R8, 0x00000000)  returns 0x00 (0000ms, 0827ms total)
T2C4C 001:999 JLINK_WriteReg(R9, 0x20000194)  returns 0x00 (0000ms, 0827ms total)
T2C4C 001:999 JLINK_WriteReg(R10, 0x00000000)  returns 0x00 (0000ms, 0827ms total)
T2C4C 001:999 JLINK_WriteReg(R11, 0x00000000)  returns 0x00 (0000ms, 0827ms total)
T2C4C 001:999 JLINK_WriteReg(R12, 0x00000000)  returns 0x00 (0000ms, 0827ms total)
T2C4C 001:999 JLINK_WriteReg(R13 (SP), 0x20001000)  returns 0x00 (0000ms, 0827ms total)
T2C4C 001:999 JLINK_WriteReg(R14, 0x20000001)  returns 0x00 (0000ms, 0827ms total)
T2C4C 001:999 JLINK_WriteReg(R15 (PC), 0x2000008C)  returns 0x00 (0001ms, 0828ms total)
T2C4C 002:000 JLINK_WriteReg(XPSR, 0x01000000)  returns 0x00 (0000ms, 0828ms total)
T2C4C 002:000 JLINK_WriteReg(MSP, 0x20001000)  returns 0x00 (0000ms, 0828ms total)
T2C4C 002:000 JLINK_WriteReg(PSP, 0x20001000)  returns 0x00 (0000ms, 0828ms total)
T2C4C 002:000 JLINK_WriteReg(CFBP, 0x00000000)  returns 0x00 (0000ms, 0828ms total)
T2C4C 002:000 JLINK_SetBPEx(Addr = 0x20000000, Type = 0xFFFFFFF2)  returns 0x00000006 (0000ms, 0828ms total)
T2C4C 002:000 JLINK_Go() -- CPU_ReadMem(4 bytes @ 0xE0001000) (0003ms, 0831ms total)
T2C4C 002:004 JLINK_IsHalted() -- CPU_ReadMem(2 bytes @ 0x20000000)  returns TRUE (0005ms, 0837ms total)
T2C4C 002:009 JLINK_ReadReg(R15 (PC))  returns 0x20000000 (0001ms, 0833ms total)
T2C4C 002:010 JLINK_ClrBPEx(BPHandle = 0x00000006)  returns 0x00 (0000ms, 0833ms total)
T2C4C 002:010 JLINK_ReadReg(R0)  returns 0x00000000 (0000ms, 0833ms total)
T2C4C 002:072 JLINK_WriteMem(0x20000000, 0x0198 Bytes, ...) - Data: 00 BE 0A E0 0D 78 2D 06 68 40 08 24 40 00 00 D3 ... -- CPU_WriteMem(408 bytes @ 0x20000000)  returns 0x198 (0006ms, 0839ms total)
T2C4C 002:078 JLINK_WriteReg(R0, 0x08000000)  returns 0x00 (0000ms, 0839ms total)
T2C4C 002:078 JLINK_WriteReg(R1, 0x0A037A00)  returns 0x00 (0000ms, 0839ms total)
T2C4C 002:078 JLINK_WriteReg(R2, 0x00000002)  returns 0x00 (0000ms, 0839ms total)
T2C4C 002:078 JLINK_WriteReg(R3, 0x00000000)  returns 0x00 (0000ms, 0839ms total)
T2C4C 002:078 JLINK_WriteReg(R4, 0x00000000)  returns 0x00 (0000ms, 0839ms total)
T2C4C 002:078 JLINK_WriteReg(R5, 0x00000000)  returns 0x00 (0000ms, 0839ms total)
T2C4C 002:078 JLINK_WriteReg(R6, 0x00000000)  returns 0x00 (0000ms, 0839ms total)
T2C4C 002:078 JLINK_WriteReg(R7, 0x00000000)  returns 0x00 (0000ms, 0839ms total)
T2C4C 002:078 JLINK_WriteReg(R8, 0x00000000)  returns 0x00 (0000ms, 0839ms total)
T2C4C 002:078 JLINK_WriteReg(R9, 0x20000194)  returns 0x00 (0000ms, 0839ms total)
T2C4C 002:078 JLINK_WriteReg(R10, 0x00000000)  returns 0x00 (0000ms, 0839ms total)
T2C4C 002:078 JLINK_WriteReg(R11, 0x00000000)  returns 0x00 (0000ms, 0839ms total)
T2C4C 002:078 JLINK_WriteReg(R12, 0x00000000)  returns 0x00 (0000ms, 0839ms total)
T2C4C 002:078 JLINK_WriteReg(R13 (SP), 0x20001000)  returns 0x00 (0000ms, 0839ms total)
T2C4C 002:078 JLINK_WriteReg(R14, 0x20000001)  returns 0x00 (0000ms, 0839ms total)
T2C4C 002:078 JLINK_WriteReg(R15 (PC), 0x2000005E)  returns 0x00 (0000ms, 0839ms total)
T2C4C 002:078 JLINK_WriteReg(XPSR, 0x01000000)  returns 0x00 (0000ms, 0839ms total)
T2C4C 002:078 JLINK_WriteReg(MSP, 0x20001000)  returns 0x00 (0000ms, 0839ms total)
T2C4C 002:078 JLINK_WriteReg(PSP, 0x20001000)  returns 0x00 (0000ms, 0839ms total)
T2C4C 002:078 JLINK_WriteReg(CFBP, 0x00000000)  returns 0x00 (0000ms, 0839ms total)
T2C4C 002:079 JLINK_SetBPEx(Addr = 0x20000000, Type = 0xFFFFFFF2) -- CPU_ReadMem(2 bytes @ 0x20000000)  returns 0x00000007 (0000ms, 0839ms total)
T2C4C 002:079 JLINK_Go() -- CPU_WriteMem(2 bytes @ 0x20000000) -- CPU_ReadMem(4 bytes @ 0xE0001000) (0005ms, 0844ms total)
T2C4C 002:084 JLINK_IsHalted() -- CPU_ReadMem(2 bytes @ 0x20000000)  returns TRUE (0006ms, 0850ms total)
T2C4C 002:090 JLINK_ReadReg(R15 (PC))  returns 0x20000000 (0000ms, 0844ms total)
T2C4C 002:090 JLINK_ClrBPEx(BPHandle = 0x00000007)  returns 0x00 (0000ms, 0844ms total)
T2C4C 002:090 JLINK_ReadReg(R0)  returns 0x00000000 (0000ms, 0844ms total)
T2C4C 002:090 JLINK_WriteMem(0x20000198, 0x0400 Bytes, ...) - Data: 38 7E 00 20 7D 02 00 08 57 1E 00 08 21 18 00 08 ... -- CPU_WriteMem(1024 bytes @ 0x20000198)  returns 0x400 (0011ms, 0855ms total)
T2C4C 002:101 JLINK_WriteReg(R0, 0x08000000)  returns 0x00 (0000ms, 0855ms total)
T2C4C 002:101 JLINK_WriteReg(R1, 0x00000400)  returns 0x00 (0000ms, 0855ms total)
T2C4C 002:101 JLINK_WriteReg(R2, 0x20000198)  returns 0x00 (0000ms, 0855ms total)
T2C4C 002:101 JLINK_WriteReg(R3, 0x00000000)  returns 0x00 (0000ms, 0855ms total)
T2C4C 002:101 JLINK_WriteReg(R4, 0x00000000)  returns 0x00 (0000ms, 0855ms total)
T2C4C 002:101 JLINK_WriteReg(R5, 0x00000000)  returns 0x00 (0000ms, 0855ms total)
T2C4C 002:101 JLINK_WriteReg(R6, 0x00000000)  returns 0x00 (0000ms, 0855ms total)
T2C4C 002:101 JLINK_WriteReg(R7, 0x00000000)  returns 0x00 (0000ms, 0855ms total)
T2C4C 002:101 JLINK_WriteReg(R8, 0x00000000)  returns 0x00 (0000ms, 0855ms total)
T2C4C 002:101 JLINK_WriteReg(R9, 0x20000194)  returns 0x00 (0000ms, 0855ms total)
T2C4C 002:101 JLINK_WriteReg(R10, 0x00000000)  returns 0x00 (0000ms, 0855ms total)
T2C4C 002:101 JLINK_WriteReg(R11, 0x00000000)  returns 0x00 (0000ms, 0855ms total)
T2C4C 002:101 JLINK_WriteReg(R12, 0x00000000)  returns 0x00 (0000ms, 0855ms total)
T2C4C 002:101 JLINK_WriteReg(R13 (SP), 0x20001000)  returns 0x00 (0000ms, 0855ms total)
T2C4C 002:101 JLINK_WriteReg(R14, 0x20000001)  returns 0x00 (0000ms, 0855ms total)
T2C4C 002:101 JLINK_WriteReg(R15 (PC), 0x20000120)  returns 0x00 (0000ms, 0855ms total)
T2C4C 002:101 JLINK_WriteReg(XPSR, 0x01000000)  returns 0x00 (0001ms, 0856ms total)
T2C4C 002:102 JLINK_WriteReg(MSP, 0x20001000)  returns 0x00 (0000ms, 0856ms total)
T2C4C 002:102 JLINK_WriteReg(PSP, 0x20001000)  returns 0x00 (0000ms, 0856ms total)
T2C4C 002:102 JLINK_WriteReg(CFBP, 0x00000000)  returns 0x00 (0000ms, 0856ms total)
T2C4C 002:102 JLINK_SetBPEx(Addr = 0x20000000, Type = 0xFFFFFFF2)  returns 0x00000008 (0000ms, 0856ms total)
T2C4C 002:102 JLINK_Go() -- CPU_ReadMem(4 bytes @ 0xE0001000) (0003ms, 0859ms total)
T2C4C 002:105 JLINK_IsHalted()  returns FALSE (0001ms, 0860ms total)
T2C4C 002:117 JLINK_IsHalted() -- CPU_ReadMem(2 bytes @ 0x20000000)  returns TRUE (0006ms, 0865ms total)
T2C4C 002:123 JLINK_ReadReg(R15 (PC))  returns 0x20000000 (0000ms, 0859ms total)
T2C4C 002:123 JLINK_ClrBPEx(BPHandle = 0x00000008)  returns 0x00 (0000ms, 0859ms total)
T2C4C 002:123 JLINK_ReadReg(R0)  returns 0x00000000 (0000ms, 0859ms total)
T2C4C 002:123 JLINK_WriteMem(0x20000198, 0x0400 Bytes, ...) - Data: 00 20 8B 69 8A 6A 4F F0 C0 74 53 B1 B3 F5 00 5F ... -- CPU_WriteMem(1024 bytes @ 0x20000198)  returns 0x400 (0012ms, 0871ms total)
T2C4C 002:135 JLINK_WriteReg(R0, 0x08000400)  returns 0x00 (0000ms, 0871ms total)
T2C4C 002:135 JLINK_WriteReg(R1, 0x00000400)  returns 0x00 (0000ms, 0871ms total)
T2C4C 002:135 JLINK_WriteReg(R2, 0x20000198)  returns 0x00 (0000ms, 0871ms total)
T2C4C 002:135 JLINK_WriteReg(R3, 0x00000000)  returns 0x00 (0000ms, 0871ms total)
T2C4C 002:135 JLINK_WriteReg(R4, 0x00000000)  returns 0x00 (0000ms, 0871ms total)
T2C4C 002:135 JLINK_WriteReg(R5, 0x00000000)  returns 0x00 (0000ms, 0871ms total)
T2C4C 002:135 JLINK_WriteReg(R6, 0x00000000)  returns 0x00 (0000ms, 0871ms total)
T2C4C 002:135 JLINK_WriteReg(R7, 0x00000000)  returns 0x00 (0000ms, 0871ms total)
T2C4C 002:135 JLINK_WriteReg(R8, 0x00000000)  returns 0x00 (0000ms, 0871ms total)
T2C4C 002:135 JLINK_WriteReg(R9, 0x20000194)  returns 0x00 (0000ms, 0871ms total)
T2C4C 002:135 JLINK_WriteReg(R10, 0x00000000)  returns 0x00 (0000ms, 0871ms total)
T2C4C 002:135 JLINK_WriteReg(R11, 0x00000000)  returns 0x00 (0000ms, 0871ms total)
T2C4C 002:135 JLINK_WriteReg(R12, 0x00000000)  returns 0x00 (0000ms, 0871ms total)
T2C4C 002:135 JLINK_WriteReg(R13 (SP), 0x20001000)  returns 0x00 (0000ms, 0871ms total)
T2C4C 002:135 JLINK_WriteReg(R14, 0x20000001)  returns 0x00 (0000ms, 0871ms total)
T2C4C 002:135 JLINK_WriteReg(R15 (PC), 0x20000120)  returns 0x00 (0000ms, 0871ms total)
T2C4C 002:135 JLINK_WriteReg(XPSR, 0x01000000)  returns 0x00 (0000ms, 0871ms total)
T2C4C 002:135 JLINK_WriteReg(MSP, 0x20001000)  returns 0x00 (0000ms, 0871ms total)
T2C4C 002:135 JLINK_WriteReg(PSP, 0x20001000)  returns 0x00 (0000ms, 0871ms total)
T2C4C 002:135 JLINK_WriteReg(CFBP, 0x00000000)  returns 0x00 (0000ms, 0871ms total)
T2C4C 002:135 JLINK_SetBPEx(Addr = 0x20000000, Type = 0xFFFFFFF2)  returns 0x00000009 (0000ms, 0871ms total)
T2C4C 002:135 JLINK_Go() -- CPU_ReadMem(4 bytes @ 0xE0001000) (0004ms, 0875ms total)
T2C4C 002:139 JLINK_IsHalted()  returns FALSE (0000ms, 0875ms total)
T2C4C 002:152 JLINK_IsHalted() -- CPU_ReadMem(2 bytes @ 0x20000000)  returns TRUE (0005ms, 0880ms total)
T2C4C 002:157 JLINK_ReadReg(R15 (PC))  returns 0x20000000 (0000ms, 0875ms total)
T2C4C 002:157 JLINK_ClrBPEx(BPHandle = 0x00000009)  returns 0x00 (0000ms, 0875ms total)
T2C4C 002:157 JLINK_ReadReg(R0)  returns 0x00000000 (0000ms, 0875ms total)
T2C4C 002:158 JLINK_WriteMem(0x20000198, 0x0400 Bytes, ...) - Data: 06 68 55 00 0F 79 0A FA 05 FC 07 F0 03 07 26 EA ... -- CPU_WriteMem(1024 bytes @ 0x20000198)  returns 0x400 (0011ms, 0886ms total)
T2C4C 002:169 JLINK_WriteReg(R0, 0x08000800)  returns 0x00 (0000ms, 0886ms total)
T2C4C 002:169 JLINK_WriteReg(R1, 0x00000400)  returns 0x00 (0000ms, 0886ms total)
T2C4C 002:169 JLINK_WriteReg(R2, 0x20000198)  returns 0x00 (0000ms, 0886ms total)
T2C4C 002:169 JLINK_WriteReg(R3, 0x00000000)  returns 0x00 (0000ms, 0886ms total)
T2C4C 002:169 JLINK_WriteReg(R4, 0x00000000)  returns 0x00 (0000ms, 0886ms total)
T2C4C 002:169 JLINK_WriteReg(R5, 0x00000000)  returns 0x00 (0000ms, 0886ms total)
T2C4C 002:169 JLINK_WriteReg(R6, 0x00000000)  returns 0x00 (0000ms, 0886ms total)
T2C4C 002:169 JLINK_WriteReg(R7, 0x00000000)  returns 0x00 (0000ms, 0886ms total)
T2C4C 002:169 JLINK_WriteReg(R8, 0x00000000)  returns 0x00 (0000ms, 0886ms total)
T2C4C 002:169 JLINK_WriteReg(R9, 0x20000194)  returns 0x00 (0000ms, 0886ms total)
T2C4C 002:169 JLINK_WriteReg(R10, 0x00000000)  returns 0x00 (0000ms, 0886ms total)
T2C4C 002:169 JLINK_WriteReg(R11, 0x00000000)  returns 0x00 (0001ms, 0887ms total)
T2C4C 002:170 JLINK_WriteReg(R12, 0x00000000)  returns 0x00 (0000ms, 0887ms total)
T2C4C 002:170 JLINK_WriteReg(R13 (SP), 0x20001000)  returns 0x00 (0000ms, 0887ms total)
T2C4C 002:170 JLINK_WriteReg(R14, 0x20000001)  returns 0x00 (0000ms, 0887ms total)
T2C4C 002:170 JLINK_WriteReg(R15 (PC), 0x20000120)  returns 0x00 (0000ms, 0887ms total)
T2C4C 002:170 JLINK_WriteReg(XPSR, 0x01000000)  returns 0x00 (0000ms, 0887ms total)
T2C4C 002:170 JLINK_WriteReg(MSP, 0x20001000)  returns 0x00 (0000ms, 0887ms total)
T2C4C 002:170 JLINK_WriteReg(PSP, 0x20001000)  returns 0x00 (0000ms, 0887ms total)
T2C4C 002:170 JLINK_WriteReg(CFBP, 0x00000000)  returns 0x00 (0000ms, 0887ms total)
T2C4C 002:170 JLINK_SetBPEx(Addr = 0x20000000, Type = 0xFFFFFFF2)  returns 0x0000000A (0000ms, 0887ms total)
T2C4C 002:170 JLINK_Go() -- CPU_ReadMem(4 bytes @ 0xE0001000) (0003ms, 0890ms total)
T2C4C 002:173 JLINK_IsHalted()  returns FALSE (0001ms, 0891ms total)
T2C4C 002:176 JLINK_IsHalted()  returns FALSE (0000ms, 0890ms total)
T2C4C 002:178 JLINK_IsHalted() -- CPU_ReadMem(2 bytes @ 0x20000000)  returns TRUE (0005ms, 0895ms total)
T2C4C 002:183 JLINK_ReadReg(R15 (PC))  returns 0x20000000 (0000ms, 0890ms total)
T2C4C 002:183 JLINK_ClrBPEx(BPHandle = 0x0000000A)  returns 0x00 (0000ms, 0890ms total)
T2C4C 002:183 JLINK_ReadReg(R0)  returns 0x00000000 (0000ms, 0890ms total)
T2C4C 002:184 JLINK_WriteMem(0x20000198, 0x0400 Bytes, ...) - Data: 60 40 40 EA C1 00 20 60 00 F0 56 F8 21 68 08 4A ... -- CPU_WriteMem(1024 bytes @ 0x20000198)  returns 0x400 (0011ms, 0901ms total)
T2C4C 002:195 JLINK_WriteReg(R0, 0x08000C00)  returns 0x00 (0000ms, 0901ms total)
T2C4C 002:195 JLINK_WriteReg(R1, 0x00000400)  returns 0x00 (0000ms, 0901ms total)
T2C4C 002:195 JLINK_WriteReg(R2, 0x20000198)  returns 0x00 (0000ms, 0901ms total)
T2C4C 002:195 JLINK_WriteReg(R3, 0x00000000)  returns 0x00 (0000ms, 0901ms total)
T2C4C 002:195 JLINK_WriteReg(R4, 0x00000000)  returns 0x00 (0000ms, 0901ms total)
T2C4C 002:195 JLINK_WriteReg(R5, 0x00000000)  returns 0x00 (0000ms, 0901ms total)
T2C4C 002:195 JLINK_WriteReg(R6, 0x00000000)  returns 0x00 (0000ms, 0901ms total)
T2C4C 002:195 JLINK_WriteReg(R7, 0x00000000)  returns 0x00 (0000ms, 0901ms total)
T2C4C 002:195 JLINK_WriteReg(R8, 0x00000000)  returns 0x00 (0000ms, 0901ms total)
T2C4C 002:195 JLINK_WriteReg(R9, 0x20000194)  returns 0x00 (0000ms, 0901ms total)
T2C4C 002:195 JLINK_WriteReg(R10, 0x00000000)  returns 0x00 (0000ms, 0901ms total)
T2C4C 002:196 JLINK_WriteReg(R11, 0x00000000)  returns 0x00 (0000ms, 0901ms total)
T2C4C 002:196 JLINK_WriteReg(R12, 0x00000000)  returns 0x00 (0000ms, 0901ms total)
T2C4C 002:196 JLINK_WriteReg(R13 (SP), 0x20001000)  returns 0x00 (0000ms, 0901ms total)
T2C4C 002:196 JLINK_WriteReg(R14, 0x20000001)  returns 0x00 (0000ms, 0901ms total)
T2C4C 002:196 JLINK_WriteReg(R15 (PC), 0x20000120)  returns 0x00 (0000ms, 0901ms total)
T2C4C 002:196 JLINK_WriteReg(XPSR, 0x01000000)  returns 0x00 (0000ms, 0901ms total)
